# MHz S MA R 50
!   freq        S11       
1000.000  0.89994  169.72
1010.050  0.89325  159.43
1020.101  0.88840  149.63
1030.151  0.88187  139.59
1040.201  0.88011  129.98
1050.251  0.87678  120.45
1060.302  0.87130  111.13
1070.352  0.87049  101.53
1080.402  0.87077   92.95
1090.452  0.87197   83.76
1100.503  0.86846   75.26
1110.553  0.86985   66.56
1120.603  0.87416   57.72
1130.653  0.87658   49.08
1140.704  0.88440   40.69
1150.754  0.88645   32.48
1160.804  0.89030   24.05
1170.854  0.89525   15.42
1180.905  0.89777    7.20
1190.955  0.90534   -0.99
1201.005  0.90822   -9.87
1211.055  0.91171  -18.39
1221.106  0.91872  -26.97
1231.156  0.92018  -36.14
1241.206  0.92362  -45.13
1251.256  0.92795  -54.31
1261.307  0.93272  -63.72
1271.357  0.93159  -73.38
1281.407  0.93578  -82.97
1291.457  0.93840  -92.70
1301.508  0.93814 -102.64
1311.558  0.93476 -112.95
1321.608  0.93008 -122.89
1331.658  0.92604 -133.34
1341.709  0.91961 -143.43
1351.759  0.91096 -154.33
1361.809  0.90740 -164.63
1371.859  0.90113 -175.06
1381.910  0.89089  174.07
1391.960  0.88442  163.65
1402.010  0.87712  153.70
1412.060  0.87136  143.13
1422.111  0.86688  133.13
1432.161  0.86051  123.02
1442.211  0.85657  113.09
1452.261  0.85145  103.28
1462.312  0.84867   93.68
1472.362  0.84905   84.23
1482.412  0.84789   74.67
1492.462  0.84789   65.26
1502.513  0.84843   56.08
1512.563  0.84906   46.65
1522.613  0.85206   37.57
1532.663  0.85727   27.96
1542.714  0.86039   18.65
1552.764  0.86406    9.75
1562.814  0.86692    0.36
1572.864  0.87527   -9.33
1582.915  0.88358  -18.33
1592.965  0.88688  -28.25
1603.015  0.89539  -38.23
1613.065  0.89713  -48.47
1623.116  0.90807  -57.97
1633.166  0.91496  -68.84
1643.216  0.91410  -79.65
1653.266  0.91571  -90.04
1663.317  0.91519 -100.81
1673.367  0.91799 -112.14
1683.417  0.91204 -123.27
1693.467  0.90823 -134.78
1703.518  0.90560 -146.81
1713.568  0.89988 -158.93
1723.618  0.89419 -170.32
1733.668  0.88663  177.28
1743.719  0.87725  165.32
1753.769  0.86713  152.44
1763.819  0.85457  139.59
1773.869  0.84643  126.90
1783.920  0.83156  113.36
1793.970  0.82322   99.39
1804.020  0.79544   84.80
1814.070  0.76749   68.69
1824.121  0.70727   52.10
1834.171  0.61847   35.87
1844.221  0.53746   27.40
1854.271  0.54335   19.62
1864.322  0.57711    4.60
1874.372  0.59852  -14.99
1884.422  0.61443  -38.68
1894.472  0.61348  -69.67
1904.523  0.60233 -108.16
1914.573  0.57000 -158.14
1924.623  0.53307  143.57
1934.673  0.51076   86.47
1944.724  0.48703   36.90
1954.774  0.44586   -2.73
1964.824  0.38854  -34.85
1974.874  0.33055  -61.71
1984.925  0.27032  -83.57
1994.975  0.22244 -104.77
2005.025  0.16179 -123.17
2015.075  0.12219 -133.82
2025.126  0.10531 -161.46
2035.176  0.05649  128.03
2045.226  0.05792   36.33
2055.276  0.10836   -7.56
2065.327  0.16938  -32.22
2075.377  0.22203  -53.47
2085.427  0.28901  -75.32
2095.477  0.33180  -99.09
2105.528  0.35463 -121.05
2115.578  0.35346 -141.50
2125.628  0.34027 -157.79
2135.678  0.32529 -173.22
2145.729  0.31644  171.52
2155.779  0.30151  154.37
2165.829  0.26750  137.13
2175.879  0.21677  122.74
2185.930  0.17878  110.62
2195.980  0.12783  102.79
2206.030  0.10769  102.72
2216.080  0.08548   90.04
2226.131  0.04741   95.57
2236.181  0.03488  136.31
2246.231  0.06742  161.29
2256.281  0.09854  149.84
2266.332  0.11115  136.36
2276.382  0.12059  124.93
2286.432  0.12029  115.46
2296.482  0.13668  104.48
2306.533  0.14185   82.79
2316.583  0.13433   68.04
2326.633  0.13792   44.78
2336.683  0.12142   15.76
2346.734  0.10682   -5.46
2356.784  0.11894  -27.68
2366.834  0.13380  -59.24
2376.884  0.15191  -84.03
2386.935  0.17736 -109.08
2396.985  0.19643 -130.45
2407.035  0.22109 -147.87
2417.085  0.23922 -164.21
2427.136  0.25422 -177.83
2437.186  0.27733  166.02
2447.236  0.28651  150.13
2457.286  0.28954  137.45
2467.337  0.30527  119.40
2477.387  0.28555   96.81
2487.437  0.15307   55.29
2497.487  0.20337  126.23
2507.538  0.25163   98.79
2517.588  0.26555   79.10
2527.638  0.26529   61.33
2537.688  0.24887   45.39
2547.739  0.23391   32.06
2557.789  0.23726   18.68
2567.839  0.25274    1.12
2577.889  0.25707  -17.62
2587.940  0.27751  -37.60
2597.990  0.30054  -58.16
2608.040  0.32249  -81.37
2618.090  0.34041 -107.45
2628.141  0.31904 -141.53
2638.191  0.17740  177.82
2648.241  0.02549  -96.62
2658.291  0.17291  -77.40
2668.342  0.29217  -98.66
2678.392  0.38940 -115.12
2688.442  0.47477 -130.36
2698.492  0.54489 -146.07
2708.543  0.59538 -161.28
2718.593  0.63261 -174.42
2728.643  0.65483  174.59
2738.693  0.68420  163.39
2748.744  0.70258  151.76
2758.794  0.71140  140.39
2768.844  0.72209  129.72
2778.894  0.71802  120.64
2788.945  0.70924  109.68
2798.995  0.69466  100.05
2809.045  0.68080   90.18
2819.095  0.63486   79.75
2829.146  0.56347   70.40
2839.196  0.49060   68.20
2849.246  0.47956   70.84
2859.296  0.55398   68.69
2869.347  0.62180   59.41
2879.397  0.66535   47.73
2889.447  0.69492   34.01
2899.497  0.71959   21.71
2909.548  0.73580    9.01
2919.598  0.74374   -5.28
2929.648  0.75641  -20.04
2939.698  0.76885  -34.79
2949.749  0.78193  -49.31
2959.799  0.79634  -64.62
2969.849  0.80602  -80.62
2979.899  0.81664  -96.62
2989.950  0.83007 -110.88
3000.000  0.82921 -126.90
